
**** 11/22/24 17:33:21 ******* PSpice Lite (March 2016) ******* ID# 10813 ****

 ** Profile: "SCHEMATIC1-amplificare"  [ c:\users\cosmin\desktop\p1_2024_434d_antoci_george-cosmin_sers_n1_orcad\schematics\p1_circui


 ****     CIRCUIT DESCRIPTION


******************************************************************************




** Creating circuit file "amplificare.cir" 
** WARNING: THIS AUTOMATICALLY GENERATED FILE MAY BE OVERWRITTEN BY SUBSEQUENT SIMULATIONS

*Libraries: 
* Profile Libraries :
* Local Libraries :
.LIB "C:/Users/Cosmin/Desktop/P1_2024_434D_Antoci_George-Cosmin_SERS_N1_Orcad/Lib_ModelePSpice_Anexa_1/Modele_A1_lib/MJD31CG.lib" 
.LIB "C:/Users/Cosmin/Desktop/P1_2024_434D_Antoci_George-Cosmin_SERS_N1_Orcad/Lib_ModelePSpice_Anexa_1/Modele_A1_lib/BZX84C2V7.lib" 
.LIB "C:/Users/Cosmin/Desktop/P1_2024_434D_Antoci_George-Cosmin_SERS_N1_Orcad/Lib_ModelePSpice_Anexa_1/Modele_A1_lib/BC856B.lib" 
.LIB "C:/Users/Cosmin/Desktop/P1_2024_434D_Antoci_George-Cosmin_SERS_N1_Orcad/Lib_ModelePSpice_Anexa_1/Modele_A1_lib/BC846B.lib" 
.LIB "C:/Users/Cosmin/Desktop/P1_2024_434D_Antoci_George-Cosmin_SERS_N1_Orcad/Lib_ModelePSpice_Anexa_1/Modele_A1_lib/1N4148.lib" 
* From [PSPICE NETLIST] section of D:\Proiecte Orcad\cdssetup\OrCAD_PSpice\17.2.0\PSpice.ini file:
.lib "nomd.lib" 

*Analysis directives: 
.AC DEC 100 1 100k
.OPTIONS ADVCONV
.PROBE64 V(alias(*)) I(alias(*)) W(alias(*)) D(alias(*)) NOISE(alias(*)) 
.INC "..\SCHEMATIC1.net" 



**** INCLUDING SCHEMATIC1.net ****
* source SIMULARE_BUCLA_DESCHISA
R_R60         0 N207891  150 TC=0,0 
R_R41         N207549 N207163  47k TC=0,0 
R_R55         N207105 N206789  680 TC=0,0 
Q_Q1         N207163 N207009 N206937 QBC856B 
Q_Q9         N207003 N206769 N206789 QBC846B 
Q_Q10         N207003 N207847 0 QBC846B 
Q_Q2         N207149 N207549 N207585 QBC846B 
X_RSET         N207593 N208301 N207405 POT PARAMS: SET={SETVAL} VALUE=2k
R_R42         0 N207549  47k TC=0,0 
X_D6         N206657 N207415 LED PARAMS: IS=3.9573e-019 RS=2  BV=5 IBV=10e-6   
+       
Q_Q5         N207149 N207097 N206657 QBC856B 
D_D1         0 N207163 BZX84-C2V7 
X_R51         N207709 N207847 0 POT PARAMS: SET=0.4 VALUE=2k
R_R57         0 N2071791  22k TC=0,0 
R_R58         0 N207415  220 TC=0,0 
R_R6         N207585 0 330
Q_Q4         N207097 N207097 N206657 QBC856B 
R_R47         0 N207303  510 TC=0,0 
Q_Q3         N207097 N208294 N207585 QBC846B 
R_R56         N207891 N207719  1k TC=0,0 
D_D3         N206873 N207009 D1N4148 
D_D2         N206657 N206873 D1N4148 
X_D7         N206789 N207239 LED PARAMS: IS=3.9573e-019 RS=2  BV=5 IBV=10e-6   
+       
R_RL         0 N206789  {Rload} TC=0,0 
R_R59         0 N207239  51 TC=0,0 
Q_Q11         N206657 N206847 N206769 QMJD31C 
Q_Q7         N206657 N207003 N206847 QBC846B 
V_V2         N206657 0 4Vdc
R_R2         N2071791 N207009  22k TC=0,0 
R_R53         N206783 N206789  1 TC=0,0 
R_R50         N207303 N207003  100 TC=0,0 
R_R54         N207405 N2071991  4.7k TC=0,0 
R_R49         N207163 N207709  2k TC=0,0 
R_R1         N206937 N206657  33 TC=0,0 
R_R5         N207719 N207593  6.8k TC=0,0 
R_R4         N2071991 N207105  100 TC=0,0 
R_R7         N206783 N206769  0.47 TC=0,0 
Q_Q6         N207303 N207149 N206657 QBC856B 
V_V4         N208305 0 DC 0Vdc AC 1Vac 
C_C1         N208305 N208294  0.1  TC=0,0 
L_L1         N208294 N208301  0.1  
.PARAM  setval=0 rload=40

**** RESUMING amplificare.cir ****
.END

**** 11/22/24 17:33:21 ******* PSpice Lite (March 2016) ******* ID# 10813 ****

 ** Profile: "SCHEMATIC1-amplificare"  [ c:\users\cosmin\desktop\p1_2024_434d_antoci_george-cosmin_sers_n1_orcad\schematics\p1_circui


 ****     Diode MODEL PARAMETERS


******************************************************************************




               BZX84-C2V7      D1N4148         X_D6.model201   X_D7.model201   
          IS  110.880000E-18    2.682000E-09  395.730000E-21  395.730000E-21 
           N     .92657         1.836           2               2            
         ISR    1.515900E-06    1.565000E-09                                 
         IKF  147.68             .04417                                      
          BV    2.7639        100               5               5            
         IBV     .06977       100.000000E-06   10.000000E-06   10.000000E-06 
          RS     .85899          .5664          2               2            
          TT   17.889000E-09   11.540000E-09                                 
         CJO  344.690000E-12    4.000000E-12                                 
          VJ     .72935          .5                                          
           M     .31964          .3333                                       


**** 11/22/24 17:33:21 ******* PSpice Lite (March 2016) ******* ID# 10813 ****

 ** Profile: "SCHEMATIC1-amplificare"  [ c:\users\cosmin\desktop\p1_2024_434d_antoci_george-cosmin_sers_n1_orcad\schematics\p1_circui


 ****     BJT MODEL PARAMETERS


******************************************************************************




               QMJD31C         QBC856B         QBC846B         
               NPN             PNP             NPN             
       LEVEL    1               1               1            
          IS   90.620200E-12   20.140000E-15   18.220000E-15 
          EG    1.05                                         
          BF    3.418700E+03  315.3           324.4          
          NF    1.17603          .9974           .9932       
         VAF   29.2393         39.15           82            
         IKF     .108267         .079            .109        
         ISE  537.193000E-09    6.578000E-15  289.400000E-18 
          NE    4               1.45            1.4          
          BR  367.353           8.68            8.29         
          NR    5                .9952           .9931       
         VAR    1.631           9.5            17.9          
         IKR    1.15207          .09             .09         
         ISC    1.157540E-09   16.330000E-15    9.982000E-12 
          NC    1.49179         1.15            1.763        
         ISS    0               0               0            
          RB   22.4853         10              10            
         RBM    1.000000E-12    5.000000E-06    5            
         IRB    2.209370E-03    5.000000E-06    5.000000E-06 
          RE  100.000000E-06     .663            .649        
          RC     .138633         .718            .7014       
         CJE  373.889000E-12   11.350000E-12   12.440000E-12 
         VJE     .67672          .7071           .7579       
         MJE     .575056         .3808           .3656       
         CJC  352.510000E-12    6.395000E-12    3.347000E-12 
         VJC     .884306         .4951           .5463       
         MJC     .473486         .44             .391        
        XCJC     .1              .6288           .6193       
         CJS    0               0               0            
         VJS     .75             .75             .75         
         MJS     .5              .333            .333        
          FC     .8              .9059           .979        
          TF   10.000000E-09  654.600000E-12  490.800000E-12 
         XTF    3.4926          5.387           9.51         
         VTF   12.6615          6.245           2.927        
         ITF     .052395         .2108           .3131       
          TR    3.298030E-06   55.000000E-09   90.000000E-09 
         XTB  999.997000E-15                                 
         XTI    1.000000E-12                                 
          KF    0               0               0            
          AF    1               1               1            
          CN    2.42            2.2             2.42         
           D     .87             .52             .87         


**** 11/22/24 17:33:21 ******* PSpice Lite (March 2016) ******* ID# 10813 ****

 ** Profile: "SCHEMATIC1-amplificare"  [ c:\users\cosmin\desktop\p1_2024_434d_antoci_george-cosmin_sers_n1_orcad\schematics\p1_circui


 ****     SMALL SIGNAL BIAS SOLUTION       TEMPERATURE =   27.000 DEG C


******************************************************************************



 NODE   VOLTAGE     NODE   VOLTAGE     NODE   VOLTAGE     NODE   VOLTAGE


(N206657)    4.0000                   (N206769)    2.0775                       

(N206783)    2.0528                   (N206789)    2.0004                       

(N206847)    2.7267                   (N206873)    3.5437                       

(N206937)    3.7799                   (N207003)    3.3327                       

(N207009)    3.0873                   (N207097)    3.3631                       

(N207105)    1.9109                   (N207149)    3.3075                       

(N207163)    2.7053                   (N207239)     .1178                       

(N207303)    3.3354                   (N207405)    1.2792                       

(N207415)    2.0319                   (N207549)    1.2798                       

(N207585)     .6438                   (N207593)    1.0221                       

(N207709)    1.3526                   (N207719)     .1478                       

(N207847)     .5410                   (N207891)     .0193                       

(N208294)    1.2792                   (N208301)    1.2792                       

(N208305)    0.0000                   (N2071791)    1.5437                      

(N2071991)    1.8977                  




    VOLTAGE SOURCE CURRENTS
    NAME         CURRENT

    V_V2        -7.691E-02
    V_V4         0.000E+00

    TOTAL POWER DISSIPATION   3.08E-01  WATTS



          JOB CONCLUDED

**** 11/22/24 17:33:21 ******* PSpice Lite (March 2016) ******* ID# 10813 ****

 ** Profile: "SCHEMATIC1-amplificare"  [ c:\users\cosmin\desktop\p1_2024_434d_antoci_george-cosmin_sers_n1_orcad\schematics\p1_circui


 ****     JOB STATISTICS SUMMARY


******************************************************************************



  Total job time (using Solver 1)   =         .05
